
T1924 000:518 SEGGER J-Link V4.90 Log File (0001ms, 0276ms total)
T1924 000:518 DLL Compiled: Jul 28 2014 10:35:20 (0001ms, 0276ms total)
T1924 000:518 Logging started @ 2017-11-06 11:08 (0002ms, 0277ms total)
T1924 000:520 JLINK_SetWarnOutHandler(...) (0000ms, 0277ms total)
T1924 000:520 JLINK_OpenEx(...)
Firmware: J-Link V9 compiled Dec 16 2016 15:34:10
Hardware: V9.40
S/N: 59404172
Feature(s): RDI, GDB, FlashDL, FlashBP, JFlash  returns O.K. (0274ms, 0551ms total)
T1924 000:794 JLINK_SetErrorOutHandler(...) (0000ms, 0551ms total)
T1924 000:794 JLINK_ExecCommand("ProjectFile = "E:\Work\IAPPRO\Project\JLinkSettings.ini"", ...)  returns 0x00 (0002ms, 0553ms total)
T1924 000:796 JLINK_ExecCommand("Device = LPC1778", ...)Device "LPC1778" selected (512 KB flash, 64 KB RAM).  returns 0x00 (0001ms, 0554ms total)
T1924 000:797 JLINK_ExecCommand("DisableConnectionTimeout", ...)  returns 0x01 (0000ms, 0554ms total)
T1924 000:797 JLINK_GetHardwareVersion()  returns 0x16F30 (0000ms, 0554ms total)
T1924 000:797 JLINK_GetDLLVersion()  returns 49000 (0000ms, 0554ms total)
T1924 000:798 JLINK_GetFirmwareString(...) (0000ms, 0555ms total)
T1924 000:799 JLINK_GetDLLVersion()  returns 49000 (0000ms, 0555ms total)
T1924 000:799 JLINK_GetCompileDateTime() (0000ms, 0555ms total)
T1924 000:799 JLINK_GetFirmwareString(...) (0000ms, 0555ms total)
T1924 000:800 JLINK_GetHardwareVersion()  returns 0x16F30 (0000ms, 0555ms total)
T1924 000:803 JLINK_TIF_Select(JLINKARM_TIF_SWD)  returns 0x00 (0004ms, 0559ms total)
T1924 000:807 JLINK_SetSpeed(5000) (0001ms, 0560ms total)
T1924 000:808 JLINK_GetId() >0x108 TIF>Found SWD-DP with ID 0x2BA01477 >0x0D TIF> >0x21 TIF> >0x0D TIF> >0x28 TIF> >0x0D TIF> >0x28 TIF> >0x0D TIF> >0x21 TIF> >0x0D TIF> >0x28 TIF> >0x0D TIF> >0x21 TIF> >0x0D TIF> >0x21 TIF> >0x0D TIF> >0x21 TIF> >0x0D TIF> >0x21 TIF> >0x0D TIF> >0x28 TIF> >0x0D TIF> >0x28 TIF> >0x0D TIF> >0x21 TIF> >0x0D TIF> >0x28 TIF> >0x0D TIF> >0x28 TIF> >0x0D TIF> >0x28 TIF> >0x0D TIF> >0x21 TIF> >0x0D TIF> >0x21 TIF> >0x0D TIF> >0x28 TIF> >0x0D TIF> >0x21 TIF> >0x0D TIF>
 >0x21 TIF>Found Cortex-M3 r2p0, Little endian. -- CPU_WriteMem(4 bytes @ 0xE0002000) -- CPU_ReadMem(4 bytes @ 0xE000EDF0) -- CPU_ReadMem(4 bytes @ 0xE0002000)FPUnit: 6 code (BP) slots and 2 literal slots -- CPU_ReadMem(4 bytes @ 0xE000EDFC) -- CPU_ReadMem(4 bytes @ 0xE0001000) -- CPU_WriteMem(4 bytes @ 0xE0001000) -- CPU_ReadMem(4 bytes @ 0xE00FF010)TPIU fitted. -- CPU_ReadMem(4 bytes @ 0xE00FF014)ETM fitted. -- CPU_ReadMem(4 bytes @ 0xE00FF018) >0x0D TIF> >0x21 TIF>  returns 0x2BA01477
 (0059ms, 0619ms total)
T1924 000:868 JLINK_GetDLLVersion()  returns 49000 (0000ms, 0619ms total)
T1924 000:868 JLINK_CORE_GetFound()  returns 0x30000FF (0000ms, 0619ms total)
T1924 000:868 JLINK_GetDebugInfo(0x100) -- Value=0xE00FF003  returns 0x00 (0000ms, 0619ms total)
T1924 000:868 JLINK_GetDebugInfo(0x101)  returns 0xFFFFFFFF (0000ms, 0619ms total)
T1924 000:868 JLINK_ReadMem (0xE0041FF0, 0x0010 Bytes, ...) -- CPU is running -- CPU_ReadMem(16 bytes @ 0xE0041FF0) - Data: 0D 00 00 00 90 00 00 00 05 00 00 00 B1 00 00 00  returns 0x00 (0001ms, 0620ms total)
T1924 000:869 JLINK_GetDebugInfo(0x102)  returns 0xFFFFFFFF (0000ms, 0620ms total)
T1924 000:869 JLINK_GetDebugInfo(0x103)  returns 0xFFFFFFFF (0000ms, 0620ms total)
T1924 000:869 JLINK_ReadMem (0xE0040FF0, 0x0010 Bytes, ...) -- CPU is running -- CPU_ReadMem(16 bytes @ 0xE0040FF0) - Data: 0D 00 00 00 90 00 00 00 05 00 00 00 B1 00 00 00  returns 0x00 (0000ms, 0620ms total)
T1924 000:870 JLINK_GetDebugInfo(0x104)  returns 0xFFFFFFFF (0000ms, 0621ms total)
T1924 000:870 JLINK_GetDebugInfo(0x105)  returns 0xFFFFFFFF (0000ms, 0621ms total)
T1924 000:870 JLINK_GetDebugInfo(0x106)  returns 0xFFFFFFFF (0000ms, 0621ms total)
T1924 000:870 JLINK_GetDebugInfo(0x107)  returns 0xFFFFFFFF (0000ms, 0621ms total)
T1924 000:870 JLINK_GetDebugInfo(0x10C)  returns 0xFFFFFFFF (0000ms, 0621ms total)
T1924 000:870 JLINK_ReadMemU32(0xE000ED00, 0x0001 Items, ...) -- CPU is running -- CPU_ReadMem(4 bytes @ 0xE000ED00) - Data: 30 C2 2F 41  returns 0x01 (0001ms, 0622ms total)
T1924 000:871 JLINK_SetResetType(JLINKARM_RESET_TYPE_NORMAL)  returns JLINKARM_RESET_TYPE_HALT_WP (0000ms, 0622ms total)
T1924 000:871 JLINK_Reset() -- CPU is running -- CPU_WriteMem(4 bytes @ 0xE000EDF0) -- CPU is running -- CPU_WriteMem(4 bytes @ 0xE000EDFC) >0x35 TIF> -- CPU is running -- CPU_WriteMem(4 bytes @ 0xE000ED0C) -- CPU is running -- CPU_ReadMem(4 bytes @ 0xE000EDF0) -- CPU is running -- CPU_ReadMem(4 bytes @ 0xE000EDF0) -- CPU is running -- CPU_WriteMem(4 bytes @ 0xE000EDF0) -- CPU is running -- CPU_WriteMem(4 bytes @ 0xE000EDFC) -- CPU is running -- CPU_ReadMem(4 bytes @ 0xE000EDF0)
 -- CPU_WriteMem(4 bytes @ 0xE000EDFC) -- CPU_WriteMem(4 bytes @ 0xE000EDFC) -- CPU_WriteMem(4 bytes @ 0xE000EDFC) -- CPU_WriteMem(4 bytes @ 0xE000EDFC) -- CPU_WriteMem(4 bytes @ 0xE000EDFC) -- CPU_WriteMem(4 bytes @ 0xE0001050) -- CPU_WriteMem(4 bytes @ 0xE0001054) -- CPU_WriteMem(4 bytes @ 0xE0001058) -- CPU_WriteMem(4 bytes @ 0xE000EDFC) -- CPU_WriteMem(4 bytes @ 0xE0001058) -- CPU_ReadMem(4 bytes @ 0x00000004) -- CPU_ReadMem(4 bytes @ 0xE0002000) -- CPU_ReadMem(4 bytes @ 0xE0002008)
 -- CPU_ReadMem(4 bytes @ 0xE000200C) -- CPU_ReadMem(4 bytes @ 0xE0002010) -- CPU_ReadMem(4 bytes @ 0xE0002014) -- CPU_ReadMem(4 bytes @ 0xE0002018) -- CPU_ReadMem(4 bytes @ 0xE000201C) -- CPU_WriteMem(4 bytes @ 0xE0002000) -- CPU_WriteMem(4 bytes @ 0xE0002008) -- CPU_WriteMem(4 bytes @ 0xE000200C) -- CPU_WriteMem(4 bytes @ 0xE0002010) -- CPU_WriteMem(4 bytes @ 0xE0002014) -- CPU_WriteMem(4 bytes @ 0xE0002018) -- CPU_WriteMem(4 bytes @ 0xE000201C) -- CPU_ReadMem(4 bytes @ 0x400FC040)
 -- CPU_WriteMem(4 bytes @ 0xE0002000) -- CPU_WriteMem(4 bytes @ 0xE0002008) -- CPU_WriteMem(4 bytes @ 0xE000200C) -- CPU_WriteMem(4 bytes @ 0xE0002010) -- CPU_WriteMem(4 bytes @ 0xE0002014) -- CPU_WriteMem(4 bytes @ 0xE0002018) -- CPU_WriteMem(4 bytes @ 0xE000201C) -- CPU_WriteMem(4 bytes @ 0xE0002000) -- CPU_ReadMem(4 bytes @ 0xE000EDFC) -- CPU_ReadMem(4 bytes @ 0xE0001000) (0271ms, 0893ms total)
T1924 001:142 JLINK_ReadReg(R15 (PC))  returns 0x00000160 (0001ms, 0894ms total)
T1924 001:143 JLINK_ReadReg(XPSR)  returns 0x61000000 (0000ms, 0894ms total)
T1924 001:143 JLINK_Halt()  returns 0x00 (0000ms, 0894ms total)
T1924 001:143 JLINK_IsHalted()  returns TRUE (0000ms, 0894ms total)
T1924 001:143 JLINK_ReadMemU32(0xE000EDF0, 0x0001 Items, ...) -- CPU_ReadMem(4 bytes @ 0xE000EDF0) - Data: 03 00 03 00  returns 0x01 (0002ms, 0896ms total)
T1924 001:145 JLINK_WriteU32(0xE000EDF0, 0xA05F0003) -- CPU_WriteMem(4 bytes @ 0xE000EDF0)  returns 0x00 (0001ms, 0897ms total)
T1924 001:146 JLINK_WriteU32(0xE000EDFC, 0x01000000) -- CPU_WriteMem(4 bytes @ 0xE000EDFC)  returns 0x00 (0001ms, 0898ms total)
T1924 001:149 JLINK_GetHWStatus(...)  returns 0x00 (0001ms, 0899ms total)
T1924 001:151 JLINK_GetNumBPUnits(Type = 0xFFFFFF00)  returns 0x06 (0000ms, 0899ms total)
T1924 001:151 JLINK_GetNumBPUnits(Type = 0xF0)  returns 0x2000 (0000ms, 0899ms total)
T1924 001:151 JLINK_GetNumWPUnits()  returns 0x04 (0001ms, 0900ms total)
T1924 001:153 JLINK_GetSpeed()  returns 0xFA0 (0000ms, 0900ms total)
T1924 001:153 JLINK_ReadMemU32(0xE000E004, 0x0001 Items, ...) -- CPU_ReadMem(4 bytes @ 0xE000E004) - Data: 01 00 00 00  returns 0x01 (0002ms, 0902ms total)
T1924 001:155 JLINK_ReadMemU32(0xE000E004, 0x0001 Items, ...) -- CPU_ReadMem(4 bytes @ 0xE000E004) - Data: 01 00 00 00  returns 0x01 (0001ms, 0903ms total)
T1924 001:156 JLINK_WriteMem(0xE0001000, 0x001C Bytes, ...) - Data: 01 00 00 00 00 00 00 00 00 00 00 00 00 00 00 00 ... -- CPU_WriteMem(28 bytes @ 0xE0001000)  returns 0x1C (0001ms, 0904ms total)
T1924 001:157 JLINK_ReadMem (0xE0001000, 0x001C Bytes, ...) -- CPU_ReadMem(28 bytes @ 0xE0001000) - Data: 01 00 00 40 00 00 00 00 00 00 00 00 00 00 00 00 ...  returns 0x00 (0001ms, 0905ms total)
T1924 001:158 JLINK_ReadReg(R15 (PC))  returns 0x00000160 (0000ms, 0905ms total)
T1924 001:158 JLINK_ReadReg(XPSR)  returns 0x61000000 (0000ms, 0905ms total)
T1924 001:165 JLINK_WriteU8(0x400FC040, 0x01) -- CPU_WriteMem(1 bytes @ 0x400FC040)  returns 0x00 (0001ms, 0906ms total)
T1924 001:243 JLINK_SetResetType(JLINKARM_RESET_TYPE_NORMAL)  returns JLINKARM_RESET_TYPE_HALT_WP (0000ms, 0906ms total)
T1924 001:243 JLINK_Reset() -- CPU_WriteMem(4 bytes @ 0xE000EDF0) -- CPU_WriteMem(4 bytes @ 0xE000EDFC) >0x35 TIF> -- CPU_WriteMem(4 bytes @ 0xE000ED0C) -- CPU_ReadMem(4 bytes @ 0xE000EDF0) -- CPU_ReadMem(4 bytes @ 0xE000EDF0) -- CPU_WriteMem(4 bytes @ 0xE000EDF0) -- CPU_WriteMem(4 bytes @ 0xE000EDFC) -- CPU is running -- CPU_ReadMem(4 bytes @ 0xE000EDF0) -- CPU_WriteMem(4 bytes @ 0xE000EDFC) -- CPU_WriteMem(4 bytes @ 0xE000EDFC) -- CPU_WriteMem(4 bytes @ 0xE000EDFC) -- CPU_WriteMem(4 bytes @ 0xE000EDFC)
 -- CPU_WriteMem(4 bytes @ 0xE000EDFC) -- CPU_WriteMem(4 bytes @ 0xE0001050) -- CPU_WriteMem(4 bytes @ 0xE0001054) -- CPU_WriteMem(4 bytes @ 0xE0001058) -- CPU_WriteMem(4 bytes @ 0xE000EDFC) -- CPU_WriteMem(4 bytes @ 0xE0001058) -- CPU_ReadMem(4 bytes @ 0x00000004) -- CPU_ReadMem(4 bytes @ 0xE0002000) -- CPU_ReadMem(4 bytes @ 0xE0002008) -- CPU_ReadMem(4 bytes @ 0xE000200C) -- CPU_ReadMem(4 bytes @ 0xE0002010) -- CPU_ReadMem(4 bytes @ 0xE0002014) -- CPU_ReadMem(4 bytes @ 0xE0002018)
 -- CPU_ReadMem(4 bytes @ 0xE000201C) -- CPU_WriteMem(4 bytes @ 0xE0002000) -- CPU_WriteMem(4 bytes @ 0xE0002008) -- CPU_WriteMem(4 bytes @ 0xE000200C) -- CPU_WriteMem(4 bytes @ 0xE0002010) -- CPU_WriteMem(4 bytes @ 0xE0002014) -- CPU_WriteMem(4 bytes @ 0xE0002018) -- CPU_WriteMem(4 bytes @ 0xE000201C) -- CPU_ReadMem(4 bytes @ 0x400FC040) -- CPU_WriteMem(4 bytes @ 0xE0002000) -- CPU_WriteMem(4 bytes @ 0xE0002008) -- CPU_WriteMem(4 bytes @ 0xE000200C) -- CPU_WriteMem(4 bytes @ 0xE0002010)
 -- CPU_WriteMem(4 bytes @ 0xE0002014) -- CPU_WriteMem(4 bytes @ 0xE0002018) -- CPU_WriteMem(4 bytes @ 0xE000201C) -- CPU_WriteMem(4 bytes @ 0xE0002000) -- CPU_ReadMem(4 bytes @ 0xE000EDFC) -- CPU_ReadMem(4 bytes @ 0xE0001000) (0267ms, 1173ms total)
T1924 001:510 JLINK_ReadReg(R15 (PC))  returns 0x00000160 (0000ms, 1173ms total)
T1924 001:510 JLINK_ReadReg(XPSR)  returns 0x61000000 (0000ms, 1173ms total)
T1924 001:511 JLINK_ReadMem (0x000000C4, 0x003C Bytes, ...) -- CPU_ReadMem(64 bytes @ 0x000000C0) -- Updating C cache (64 bytes @ 0x000000C0) -- Read from C cache (60 bytes @ 0x000000C4) - Data: 00 F0 02 F8 00 F0 3A F8 0A A0 90 E8 00 0C 82 44 ...  returns 0x00 (0002ms, 1175ms total)
T1924 001:513 JLINK_ReadMem (0x00000100, 0x003C Bytes, ...) -- CPU_ReadMem(64 bytes @ 0x00000100) -- Updating C cache (64 bytes @ 0x00000100) -- Read from C cache (60 bytes @ 0x00000100) - Data: 10 3A 24 BF 78 C8 78 C1 FA D8 52 07 24 BF 30 C8 ...  returns 0x00 (0001ms, 1176ms total)
T1924 001:514 JLINK_ReadMem (0x0000013C, 0x003C Bytes, ...) -- CPU_ReadMem(64 bytes @ 0x00000140) -- Updating C cache (64 bytes @ 0x00000140) -- Read from C cache (60 bytes @ 0x0000013C) - Data: 10 B5 10 BD 00 F0 DE F8 11 46 FF F7 F7 FF 01 F0 ...  returns 0x00 (0001ms, 1177ms total)
T1924 001:599 JLINK_ReadMem (0x4000C000, 0x000C Bytes, ...) -- CPU_ReadMem(12 bytes @ 0x4000C000) - Data: 00 00 00 00 00 00 00 00 01 00 00 00  returns 0x00 (0001ms, 1178ms total)
T1924 001:600 JLINK_ReadMem (0x4000C00C, 0x0004 Bytes, ...) -- CPU_ReadMem(4 bytes @ 0x4000C00C) - Data: 00 00 00 00  returns 0x00 (0001ms, 1179ms total)
T1924 001:601 JLINK_ReadMem (0x4000C014, 0x0004 Bytes, ...) -- CPU_ReadMem(4 bytes @ 0x4000C014) - Data: 60 00 00 00  returns 0x00 (0001ms, 1180ms total)
T1924 001:602 JLINK_ReadMem (0x4000C01C, 0x0004 Bytes, ...) -- CPU_ReadMem(4 bytes @ 0x4000C01C) - Data: 00 00 00 00  returns 0x00 (0001ms, 1181ms total)
T1924 001:603 JLINK_ReadMem (0x4000C020, 0x0004 Bytes, ...) -- CPU_ReadMem(4 bytes @ 0x4000C020) - Data: 00 00 00 00  returns 0x00 (0001ms, 1182ms total)
T1924 001:604 JLINK_ReadMem (0x4000C028, 0x0004 Bytes, ...) -- CPU_ReadMem(4 bytes @ 0x4000C028) - Data: 10 00 00 00  returns 0x00 (0001ms, 1183ms total)
T1924 001:605 JLINK_ReadMem (0x4000C030, 0x0004 Bytes, ...) -- CPU_ReadMem(4 bytes @ 0x4000C030) - Data: 80 00 00 00  returns 0x00 (0001ms, 1184ms total)
T1924 001:606 JLINK_ReadMem (0x4000C04C, 0x0008 Bytes, ...) -- CPU_ReadMem(8 bytes @ 0x4000C04C) - Data: 00 00 00 00 00 00 00 00  returns 0x00 (0001ms, 1185ms total)
T1924 001:607 JLINK_ReadMem (0x4000C054, 0x0004 Bytes, ...) -- CPU_ReadMem(4 bytes @ 0x4000C054) - Data: 00 00 00 00  returns 0x00 (0001ms, 1186ms total)
T1924 002:023 JLINK_ReadMem (0x0000018A, 0x0195 Bytes, ...) -- CPU_ReadMem(448 bytes @ 0x00000180) -- Updating C cache (448 bytes @ 0x00000180) -- Read from C cache (405 bytes @ 0x0000018A) - Data: FE E7 FE E7 FE E7 FE E7 FE E7 FE E7 FE E7 FE E7 ...  returns 0x00 (0002ms, 1188ms total)
T1924 002:311 JLINK_ReadMem (0x10000044, 0x0004 Bytes, ...) -- CPU_ReadMem(64 bytes @ 0x10000040) -- Updating C cache (64 bytes @ 0x10000040) -- Read from C cache (4 bytes @ 0x10000044) - Data: 70 B5 60 4C  returns 0x00 (0003ms, 1191ms total)
T1924 002:317 JLINK_ReadMemU32(0xE0001004, 0x0001 Items, ...) -- CPU_ReadMem(4 bytes @ 0xE0001004) - Data: EC 03 00 00  returns 0x01 (0001ms, 1192ms total)
T1924 002:319 JLINK_ReadMem (0x4000C000, 0x000C Bytes, ...) -- CPU_ReadMem(12 bytes @ 0x4000C000) - Data: 00 00 00 00 00 00 00 00 01 00 00 00  returns 0x00 (0001ms, 1193ms total)
T1924 002:320 JLINK_ReadMem (0x4000C00C, 0x0004 Bytes, ...) -- CPU_ReadMem(4 bytes @ 0x4000C00C) - Data: 00 00 00 00  returns 0x00 (0001ms, 1194ms total)
T1924 002:321 JLINK_ReadMem (0x4000C014, 0x0004 Bytes, ...) -- CPU_ReadMem(4 bytes @ 0x4000C014) - Data: 60 00 00 00  returns 0x00 (0001ms, 1195ms total)
T1924 002:322 JLINK_ReadMem (0x4000C01C, 0x0004 Bytes, ...) -- CPU_ReadMem(4 bytes @ 0x4000C01C) - Data: 00 00 00 00  returns 0x00 (0001ms, 1196ms total)
T1924 002:323 JLINK_ReadMem (0x4000C020, 0x0004 Bytes, ...) -- CPU_ReadMem(4 bytes @ 0x4000C020) - Data: 00 00 00 00  returns 0x00 (0001ms, 1197ms total)
T1924 002:324 JLINK_ReadMem (0x4000C028, 0x0004 Bytes, ...) -- CPU_ReadMem(4 bytes @ 0x4000C028) - Data: 10 00 00 00  returns 0x00 (0001ms, 1198ms total)
T1924 002:325 JLINK_ReadMem (0x4000C030, 0x0004 Bytes, ...) -- CPU_ReadMem(4 bytes @ 0x4000C030) - Data: 80 00 00 00  returns 0x00 (0001ms, 1199ms total)
T1924 002:326 JLINK_ReadMem (0x4000C04C, 0x0008 Bytes, ...) -- CPU_ReadMem(8 bytes @ 0x4000C04C) - Data: 00 00 00 00 00 00 00 00  returns 0x00 (0001ms, 1200ms total)
T1924 002:327 JLINK_ReadMem (0x4000C054, 0x0004 Bytes, ...) -- CPU_ReadMem(4 bytes @ 0x4000C054) - Data: 00 00 00 00  returns 0x00 (0001ms, 1201ms total)
T1C44 003:975 JLINK_SetBPEx(Addr = 0x00001360, Type = 0xFFFFFFF2)  returns 0x00000001 (0001ms, 1202ms total)
T1C44 003:976 JLINK_Go() -- CPU_WriteMem(4 bytes @ 0xE0002000) -- CPU_WriteMem(4 bytes @ 0xE0002008) -- CPU_WriteMem(4 bytes @ 0xE000200C) -- CPU_WriteMem(4 bytes @ 0xE0002010) -- CPU_WriteMem(4 bytes @ 0xE0002014) -- CPU_WriteMem(4 bytes @ 0xE0002018) -- CPU_WriteMem(4 bytes @ 0xE000201C) -- CPU_WriteMem(4 bytes @ 0xE0001004) (0006ms, 1208ms total)
T1C44 004:082 JLINK_IsHalted()  returns FALSE (0001ms, 1209ms total)
T1C44 004:183 JLINK_IsHalted()  returns FALSE (0001ms, 1209ms total)
T1C44 004:284 JLINK_IsHalted()  returns FALSE (0001ms, 1209ms total)
T1C44 004:385 JLINK_IsHalted()  returns FALSE (0001ms, 1209ms total)
T1C44 004:486 JLINK_ReadMemU32(0xE0001004, 0x0001 Items, ...) -- CPU is running -- CPU_ReadMem(4 bytes @ 0xE0001004) - Data: 47 61 E1 02  returns 0x01 (0001ms, 1209ms total)
T1924 004:490 JLINK_ReadMem (0x0000018A, 0x0195 Bytes, ...) -- CPU is running -- CPU_ReadMem(4 bytes @ 0x400FC040) -- CPU is running -- CPU_ReadMem(405 bytes @ 0x0000018A) - Data: FE E7 FE E7 FE E7 FE E7 FE E7 FE E7 FE E7 FE E7 ...  returns 0x00 (0004ms, 1213ms total)
T1924 004:498 JLINK_ReadMem (0x10000044, 0x0004 Bytes, ...) -- CPU is running -- CPU_ReadMem(4 bytes @ 0x10000044) - Data: 00 00 00 00  returns 0x00 (0001ms, 1214ms total)
T1924 004:500 JLINK_ReadMem (0x4000C000, 0x000C Bytes, ...) -- CPU is running -- CPU_ReadMem(12 bytes @ 0x4000C000) - Data: 00 00 00 00 00 00 00 00 01 00 00 00  returns 0x00 (0000ms, 1214ms total)
T1924 004:500 JLINK_ReadMem (0x4000C00C, 0x0004 Bytes, ...) -- CPU is running -- CPU_ReadMem(4 bytes @ 0x4000C00C) - Data: 03 00 00 00  returns 0x00 (0001ms, 1215ms total)
T1924 004:502 JLINK_ReadMem (0x4000C014, 0x0004 Bytes, ...) -- CPU is running -- CPU_ReadMem(4 bytes @ 0x4000C014) - Data: 60 00 00 00  returns 0x00 (0000ms, 1216ms total)
T1924 004:502 JLINK_ReadMem (0x4000C01C, 0x0004 Bytes, ...) -- CPU is running -- CPU_ReadMem(4 bytes @ 0x4000C01C) - Data: 00 00 00 00  returns 0x00 (0001ms, 1217ms total)
T1924 004:503 JLINK_ReadMem (0x4000C020, 0x0004 Bytes, ...) -- CPU is running -- CPU_ReadMem(4 bytes @ 0x4000C020) - Data: 00 00 00 00  returns 0x00 (0001ms, 1218ms total)
T1924 004:504 JLINK_ReadMem (0x4000C028, 0x0004 Bytes, ...) -- CPU is running -- CPU_ReadMem(4 bytes @ 0x4000C028) - Data: 41 00 00 00  returns 0x00 (0001ms, 1219ms total)
T1924 004:505 JLINK_ReadMem (0x4000C030, 0x0004 Bytes, ...) -- CPU is running -- CPU_ReadMem(4 bytes @ 0x4000C030) - Data: 80 00 00 00  returns 0x00 (0001ms, 1220ms total)
T1924 004:506 JLINK_ReadMem (0x4000C04C, 0x0008 Bytes, ...) -- CPU is running -- CPU_ReadMem(8 bytes @ 0x4000C04C) - Data: 00 00 00 00 00 00 00 00  returns 0x00 (0001ms, 1221ms total)
T1924 004:507 JLINK_ReadMem (0x4000C054, 0x0004 Bytes, ...) -- CPU is running -- CPU_ReadMem(4 bytes @ 0x4000C054) - Data: 00 00 00 00  returns 0x00 (0001ms, 1222ms total)
T1C44 004:509 JLINK_IsHalted()  returns FALSE (0001ms, 1223ms total)
T1C44 004:610 JLINK_IsHalted()  returns FALSE (0001ms, 1223ms total)
T1C44 004:711 JLINK_IsHalted()  returns FALSE (0001ms, 1223ms total)
T1C44 004:812 JLINK_IsHalted()  returns FALSE (0001ms, 1223ms total)
T1C44 004:913 JLINK_IsHalted()  returns FALSE (0001ms, 1223ms total)
T1C44 005:014 JLINK_ReadMemU32(0xE0001004, 0x0001 Items, ...) -- CPU is running -- CPU_ReadMem(4 bytes @ 0xE0001004) - Data: 42 AF E8 05  returns 0x01 (0002ms, 1224ms total)
T1924 005:016 JLINK_ReadMem (0x0000018A, 0x0195 Bytes, ...) -- CPU is running -- CPU_ReadMem(405 bytes @ 0x0000018A) - Data: FE E7 FE E7 FE E7 FE E7 FE E7 FE E7 FE E7 FE E7 ...  returns 0x00 (0003ms, 1227ms total)
T1924 005:023 JLINK_ReadMem (0x10000044, 0x0004 Bytes, ...) -- CPU is running -- CPU_ReadMem(4 bytes @ 0x10000044) - Data: 00 00 00 00  returns 0x00 (0002ms, 1229ms total)
T1924 005:025 JLINK_ReadMem (0x4000C000, 0x000C Bytes, ...) -- CPU is running -- CPU_ReadMem(12 bytes @ 0x4000C000) - Data: 00 00 00 00 00 00 00 00 01 00 00 00  returns 0x00 (0001ms, 1230ms total)
T1924 005:026 JLINK_ReadMem (0x4000C00C, 0x0004 Bytes, ...) -- CPU is running -- CPU_ReadMem(4 bytes @ 0x4000C00C) - Data: 03 00 00 00  returns 0x00 (0001ms, 1231ms total)
T1924 005:027 JLINK_ReadMem (0x4000C014, 0x0004 Bytes, ...) -- CPU is running -- CPU_ReadMem(4 bytes @ 0x4000C014) - Data: 60 00 00 00  returns 0x00 (0001ms, 1232ms total)
T1924 005:028 JLINK_ReadMem (0x4000C01C, 0x0004 Bytes, ...) -- CPU is running -- CPU_ReadMem(4 bytes @ 0x4000C01C) - Data: 00 00 00 00  returns 0x00 (0001ms, 1233ms total)
T1924 005:029 JLINK_ReadMem (0x4000C020, 0x0004 Bytes, ...) -- CPU is running -- CPU_ReadMem(4 bytes @ 0x4000C020) - Data: 00 00 00 00  returns 0x00 (0001ms, 1234ms total)
T1924 005:030 JLINK_ReadMem (0x4000C028, 0x0004 Bytes, ...) -- CPU is running -- CPU_ReadMem(4 bytes @ 0x4000C028) - Data: 41 00 00 00  returns 0x00 (0001ms, 1235ms total)
T1924 005:031 JLINK_ReadMem (0x4000C030, 0x0004 Bytes, ...) -- CPU is running -- CPU_ReadMem(4 bytes @ 0x4000C030) - Data: 80 00 00 00  returns 0x00 (0001ms, 1236ms total)
T1924 005:032 JLINK_ReadMem (0x4000C04C, 0x0008 Bytes, ...) -- CPU is running -- CPU_ReadMem(8 bytes @ 0x4000C04C) - Data: 00 00 00 00 00 00 00 00  returns 0x00 (0001ms, 1237ms total)
T1924 005:033 JLINK_ReadMem (0x4000C054, 0x0004 Bytes, ...) -- CPU is running -- CPU_ReadMem(4 bytes @ 0x4000C054) - Data: 00 00 00 00  returns 0x00 (0001ms, 1238ms total)
T1C44 005:035 JLINK_IsHalted()  returns FALSE (0001ms, 1239ms total)
T1C44 005:136 JLINK_IsHalted()  returns FALSE (0001ms, 1239ms total)
T1C44 005:237 JLINK_IsHalted()  returns FALSE (0001ms, 1239ms total)
T1C44 005:338 JLINK_IsHalted()  returns FALSE (0001ms, 1239ms total)
T1C44 005:439 JLINK_IsHalted()  returns FALSE (0001ms, 1239ms total)
T1C44 005:540 JLINK_ReadMemU32(0xE0001004, 0x0001 Items, ...) -- CPU is running -- CPU_ReadMem(4 bytes @ 0xE0001004) - Data: 9D DF E8 08  returns 0x01 (0001ms, 1239ms total)
T1924 005:541 JLINK_ReadMem (0x0000018A, 0x0195 Bytes, ...) -- CPU is running -- CPU_ReadMem(405 bytes @ 0x0000018A) - Data: FE E7 FE E7 FE E7 FE E7 FE E7 FE E7 FE E7 FE E7 ...  returns 0x00 (0002ms, 1241ms total)
T1924 005:545 JLINK_ReadMem (0x10000044, 0x0004 Bytes, ...) -- CPU is running -- CPU_ReadMem(4 bytes @ 0x10000044) - Data: 00 00 00 00  returns 0x00 (0001ms, 1242ms total)
T1924 005:546 JLINK_ReadMem (0x4000C000, 0x000C Bytes, ...) -- CPU is running -- CPU_ReadMem(12 bytes @ 0x4000C000) - Data: 00 00 00 00 00 00 00 00 01 00 00 00  returns 0x00 (0001ms, 1243ms total)
T1924 005:547 JLINK_ReadMem (0x4000C00C, 0x0004 Bytes, ...) -- CPU is running -- CPU_ReadMem(4 bytes @ 0x4000C00C) - Data: 03 00 00 00  returns 0x00 (0001ms, 1244ms total)
T1924 005:548 JLINK_ReadMem (0x4000C014, 0x0004 Bytes, ...) -- CPU is running -- CPU_ReadMem(4 bytes @ 0x4000C014) - Data: 60 00 00 00  returns 0x00 (0001ms, 1245ms total)
T1924 005:549 JLINK_ReadMem (0x4000C01C, 0x0004 Bytes, ...) -- CPU is running -- CPU_ReadMem(4 bytes @ 0x4000C01C) - Data: 00 00 00 00  returns 0x00 (0001ms, 1246ms total)
T1924 005:550 JLINK_ReadMem (0x4000C020, 0x0004 Bytes, ...) -- CPU is running -- CPU_ReadMem(4 bytes @ 0x4000C020) - Data: 00 00 00 00  returns 0x00 (0001ms, 1247ms total)
T1924 005:551 JLINK_ReadMem (0x4000C028, 0x0004 Bytes, ...) -- CPU is running -- CPU_ReadMem(4 bytes @ 0x4000C028) - Data: 41 00 00 00  returns 0x00 (0001ms, 1248ms total)
T1924 005:552 JLINK_ReadMem (0x4000C030, 0x0004 Bytes, ...) -- CPU is running -- CPU_ReadMem(4 bytes @ 0x4000C030) - Data: 80 00 00 00  returns 0x00 (0001ms, 1249ms total)
T1924 005:553 JLINK_ReadMem (0x4000C04C, 0x0008 Bytes, ...) -- CPU is running -- CPU_ReadMem(8 bytes @ 0x4000C04C) - Data: 00 00 00 00 00 00 00 00  returns 0x00 (0001ms, 1250ms total)
T1924 005:554 JLINK_ReadMem (0x4000C054, 0x0004 Bytes, ...) -- CPU is running -- CPU_ReadMem(4 bytes @ 0x4000C054) - Data: 00 00 00 00  returns 0x00 (0001ms, 1251ms total)
T1C44 005:555 JLINK_IsHalted()  returns FALSE (0001ms, 1252ms total)
T1C44 005:656 JLINK_IsHalted()  returns FALSE (0001ms, 1252ms total)
T1C44 005:757 JLINK_IsHalted()  returns FALSE (0001ms, 1252ms total)
T1C44 005:858 JLINK_IsHalted()  returns FALSE (0001ms, 1252ms total)
T1C44 005:959 JLINK_IsHalted()  returns FALSE (0001ms, 1252ms total)
T1C44 006:060 JLINK_ReadMemU32(0xE0001004, 0x0001 Items, ...) -- CPU is running -- CPU_ReadMem(4 bytes @ 0xE0001004) - Data: 31 EE E2 0B  returns 0x01 (0001ms, 1252ms total)
T1924 006:061 JLINK_ReadMem (0x0000018A, 0x0195 Bytes, ...) -- CPU is running -- CPU_ReadMem(405 bytes @ 0x0000018A) - Data: FE E7 FE E7 FE E7 FE E7 FE E7 FE E7 FE E7 FE E7 ...  returns 0x00 (0003ms, 1255ms total)
T1924 006:066 JLINK_ReadMem (0x10000044, 0x0004 Bytes, ...) -- CPU is running -- CPU_ReadMem(4 bytes @ 0x10000044) - Data: 00 00 00 00  returns 0x00 (0001ms, 1256ms total)
T1924 006:067 JLINK_ReadMem (0x4000C000, 0x000C Bytes, ...) -- CPU is running -- CPU_ReadMem(12 bytes @ 0x4000C000) - Data: 00 00 00 00 00 00 00 00 01 00 00 00  returns 0x00 (0001ms, 1257ms total)
T1924 006:068 JLINK_ReadMem (0x4000C00C, 0x0004 Bytes, ...) -- CPU is running -- CPU_ReadMem(4 bytes @ 0x4000C00C) - Data: 03 00 00 00  returns 0x00 (0001ms, 1258ms total)
T1924 006:069 JLINK_ReadMem (0x4000C014, 0x0004 Bytes, ...) -- CPU is running -- CPU_ReadMem(4 bytes @ 0x4000C014) - Data: 00 00 00 00  returns 0x00 (0001ms, 1259ms total)
T1924 006:070 JLINK_ReadMem (0x4000C01C, 0x0004 Bytes, ...) -- CPU is running -- CPU_ReadMem(4 bytes @ 0x4000C01C) - Data: 00 00 00 00  returns 0x00 (0001ms, 1260ms total)
T1924 006:071 JLINK_ReadMem (0x4000C020, 0x0004 Bytes, ...) -- CPU is running -- CPU_ReadMem(4 bytes @ 0x4000C020) - Data: 00 00 00 00  returns 0x00 (0001ms, 1261ms total)
T1924 006:072 JLINK_ReadMem (0x4000C028, 0x0004 Bytes, ...) -- CPU is running -- CPU_ReadMem(4 bytes @ 0x4000C028) - Data: 41 00 00 00  returns 0x00 (0001ms, 1262ms total)
T1924 006:073 JLINK_ReadMem (0x4000C030, 0x0004 Bytes, ...) -- CPU is running -- CPU_ReadMem(4 bytes @ 0x4000C030) - Data: 80 00 00 00  returns 0x00 (0001ms, 1263ms total)
T1924 006:074 JLINK_ReadMem (0x4000C04C, 0x0008 Bytes, ...) -- CPU is running -- CPU_ReadMem(8 bytes @ 0x4000C04C) - Data: 00 00 00 00 00 00 00 00  returns 0x00 (0001ms, 1264ms total)
T1924 006:075 JLINK_ReadMem (0x4000C054, 0x0004 Bytes, ...) -- CPU is running -- CPU_ReadMem(4 bytes @ 0x4000C054) - Data: 00 00 00 00  returns 0x00 (0001ms, 1265ms total)
T1C44 006:077 JLINK_IsHalted()  returns FALSE (0002ms, 1267ms total)
T1C44 006:179 JLINK_IsHalted()  returns TRUE (0003ms, 1268ms total)
T1C44 006:182 JLINK_Halt()  returns 0x00 (0000ms, 1265ms total)
T1C44 006:182 JLINK_IsHalted()  returns TRUE (0000ms, 1265ms total)
T1C44 006:182 JLINK_IsHalted()  returns TRUE (0000ms, 1265ms total)
T1C44 006:182 JLINK_IsHalted()  returns TRUE (0000ms, 1265ms total)
T1C44 006:182 JLINK_ReadReg(R15 (PC))  returns 0x00001360 (0000ms, 1265ms total)
T1C44 006:182 JLINK_ReadReg(XPSR)  returns 0x2100000F (0000ms, 1265ms total)
T1C44 006:182 JLINK_ClrBPEx(BPHandle = 0x00000001)  returns 0x00 (0000ms, 1265ms total)
T1C44 006:182 JLINK_ReadMemU32(0xE000ED30, 0x0001 Items, ...) -- CPU_ReadMem(4 bytes @ 0xE000ED30) - Data: 02 00 00 00  returns 0x01 (0001ms, 1266ms total)
T1C44 006:183 JLINK_ReadMemU32(0xE0001028, 0x0001 Items, ...) -- CPU_ReadMem(4 bytes @ 0xE0001028) - Data: 00 00 00 00  returns 0x01 (0001ms, 1267ms total)
T1C44 006:184 JLINK_ReadMemU32(0xE0001038, 0x0001 Items, ...) -- CPU_ReadMem(4 bytes @ 0xE0001038) - Data: 00 02 00 00  returns 0x01 (0001ms, 1268ms total)
T1C44 006:185 JLINK_ReadMemU32(0xE0001048, 0x0001 Items, ...) -- CPU_ReadMem(4 bytes @ 0xE0001048) - Data: 00 00 00 00  returns 0x01 (0001ms, 1269ms total)
T1C44 006:186 JLINK_ReadMemU32(0xE0001058, 0x0001 Items, ...) -- CPU_ReadMem(4 bytes @ 0xE0001058) - Data: 00 00 00 01  returns 0x01 (0001ms, 1270ms total)
T1C44 006:187 JLINK_ReadReg(R0)  returns 0x00000001 (0000ms, 1270ms total)
T1C44 006:187 JLINK_ReadReg(R1)  returns 0x10000044 (0000ms, 1270ms total)
T1C44 006:187 JLINK_ReadReg(R2)  returns 0x4000C000 (0000ms, 1270ms total)
T1C44 006:187 JLINK_ReadReg(R3)  returns 0x00000020 (0002ms, 1272ms total)
T1C44 006:189 JLINK_ReadReg(R4)  returns 0x100012C0 (0001ms, 1273ms total)
T1C44 006:190 JLINK_ReadReg(R5)  returns 0x4000C000 (0000ms, 1273ms total)
T1C44 006:190 JLINK_ReadReg(R6)  returns 0xFF85D839 (0000ms, 1273ms total)
T1C44 006:190 JLINK_ReadReg(R7)  returns 0x100012C0 (0000ms, 1273ms total)
T1C44 006:190 JLINK_ReadReg(R8)  returns 0x00000001 (0000ms, 1273ms total)
T1C44 006:190 JLINK_ReadReg(R9)  returns 0x00000001 (0000ms, 1273ms total)
T1C44 006:190 JLINK_ReadReg(R10)  returns 0x00001B80 (0000ms, 1273ms total)
T1C44 006:190 JLINK_ReadReg(R11)  returns 0x00000000 (0000ms, 1273ms total)
T1C44 006:190 JLINK_ReadReg(R12)  returns 0xFFFFFFFF (0001ms, 1274ms total)
T1C44 006:191 JLINK_ReadReg(R13 (SP))  returns 0x10001278 (0000ms, 1274ms total)
T1C44 006:191 JLINK_ReadReg(R14)  returns 0x000010AB (0000ms, 1274ms total)
T1C44 006:191 JLINK_ReadReg(R15 (PC))  returns 0x00001360 (0000ms, 1274ms total)
T1C44 006:191 JLINK_ReadReg(XPSR)  returns 0x2100000F (0000ms, 1274ms total)
T1C44 006:191 JLINK_ReadReg(MSP)  returns 0x10001278 (0000ms, 1274ms total)
T1C44 006:191 JLINK_ReadReg(PSP)  returns 0x10000FE0 (0000ms, 1274ms total)
T1C44 006:191 JLINK_ReadReg(CFBP)  returns 0x00010001 (0000ms, 1274ms total)
T1924 006:194 JLINK_ReadMemU32(0xE0001004, 0x0001 Items, ...) -- CPU_ReadMem(4 bytes @ 0xE0001004) - Data: B0 F5 03 0C  returns 0x01 (0001ms, 1275ms total)
T1924 006:195 JLINK_ReadMem (0x10000044, 0x0004 Bytes, ...) -- CPU_ReadMem(64 bytes @ 0x10000040) -- Updating C cache (64 bytes @ 0x10000040) -- Read from C cache (4 bytes @ 0x10000044) - Data: 01 00 00 00  returns 0x00 (0002ms, 1277ms total)
T1924 006:197 JLINK_ReadMem (0x0000018A, 0x0195 Bytes, ...) -- CPU_ReadMem(4 bytes @ 0x400FC040) -- CPU_ReadMem(448 bytes @ 0x00000180) -- Updating C cache (448 bytes @ 0x00000180) -- Read from C cache (405 bytes @ 0x0000018A) - Data: FE E7 FE E7 FE E7 FE E7 FE E7 FE E7 FE E7 FE E7 ...  returns 0x00 (0003ms, 1280ms total)
T1924 006:205 JLINK_ReadMem (0x4000C000, 0x000C Bytes, ...) -- CPU_ReadMem(12 bytes @ 0x4000C000) - Data: 00 00 00 00 00 00 00 00 01 00 00 00  returns 0x00 (0001ms, 1281ms total)
T1924 006:206 JLINK_ReadMem (0x4000C00C, 0x0004 Bytes, ...) -- CPU_ReadMem(4 bytes @ 0x4000C00C) - Data: 03 00 00 00  returns 0x00 (0001ms, 1282ms total)
T1924 006:207 JLINK_ReadMem (0x4000C014, 0x0004 Bytes, ...) -- CPU_ReadMem(4 bytes @ 0x4000C014) - Data: 60 00 00 00  returns 0x00 (0001ms, 1283ms total)
T1924 006:208 JLINK_ReadMem (0x4000C01C, 0x0004 Bytes, ...) -- CPU_ReadMem(4 bytes @ 0x4000C01C) - Data: 00 00 00 00  returns 0x00 (0001ms, 1284ms total)
T1924 006:209 JLINK_ReadMem (0x4000C020, 0x0004 Bytes, ...) -- CPU_ReadMem(4 bytes @ 0x4000C020) - Data: 00 00 00 00  returns 0x00 (0001ms, 1285ms total)
T1924 006:210 JLINK_ReadMem (0x4000C028, 0x0004 Bytes, ...) -- CPU_ReadMem(4 bytes @ 0x4000C028) - Data: 41 00 00 00  returns 0x00 (0001ms, 1286ms total)
T1924 006:211 JLINK_ReadMem (0x4000C030, 0x0004 Bytes, ...) -- CPU_ReadMem(4 bytes @ 0x4000C030) - Data: 80 00 00 00  returns 0x00 (0001ms, 1287ms total)
T1924 006:212 JLINK_ReadMem (0x4000C04C, 0x0008 Bytes, ...) -- CPU_ReadMem(8 bytes @ 0x4000C04C) - Data: 00 00 00 00 00 00 00 00  returns 0x00 (0001ms, 1288ms total)
T1924 006:213 JLINK_ReadMem (0x4000C054, 0x0004 Bytes, ...) -- CPU_ReadMem(4 bytes @ 0x4000C054) - Data: 00 00 00 00  returns 0x00 (0001ms, 1289ms total)
T1924 006:218 JLINK_ReadMem (0x0000135A, 0x0002 Bytes, ...) -- CPU_ReadMem(64 bytes @ 0x00001340) -- Updating C cache (64 bytes @ 0x00001340) -- Read from C cache (2 bytes @ 0x0000135A) - Data: 01 20  returns 0x00 (0001ms, 1290ms total)
T1924 006:219 JLINK_ReadMem (0x0000135C, 0x003C Bytes, ...) -- CPU_ReadMem(64 bytes @ 0x00001380) -- Updating C cache (64 bytes @ 0x00001380) -- Read from C cache (60 bytes @ 0x0000135C) - Data: 21 49 08 60 00 BF 21 48 00 68 00 F4 E0 60 20 49 ...  returns 0x00 (0001ms, 1291ms total)
T1924 006:220 JLINK_ReadMem (0x00001350, 0x003C Bytes, ...) -- Read from C cache (60 bytes @ 0x00001350) - Data: 21 A1 16 48 16 4A 12 68 90 47 01 20 21 49 08 60 ...  returns 0x00 (0000ms, 1291ms total)
T1C44 009:418 JLINK_Go() -- CPU_WriteMem(4 bytes @ 0xE0002008) (0004ms, 1295ms total)
T1C44 009:523 JLINK_IsHalted()  returns FALSE (0001ms, 1297ms total)
T1C44 009:624 JLINK_IsHalted()  returns FALSE (0001ms, 1297ms total)
T1C44 009:725 JLINK_IsHalted()  returns FALSE (0001ms, 1297ms total)
T1C44 009:826 JLINK_IsHalted()  returns FALSE (0001ms, 1297ms total)
T1C44 009:927 JLINK_IsHalted()  returns FALSE (0001ms, 1297ms total)
T1C44 010:028 JLINK_ReadMemU32(0xE0001004, 0x0001 Items, ...) -- CPU is running -- CPU_ReadMem(4 bytes @ 0xE0001004) - Data: 3C EE 58 10  returns 0x01 (0001ms, 1297ms total)
T1924 010:029 JLINK_ReadMem (0x0000018A, 0x0195 Bytes, ...) -- CPU is running -- CPU_ReadMem(4 bytes @ 0x400FC040) -- CPU is running -- CPU_ReadMem(405 bytes @ 0x0000018A) - Data: FE E7 FE E7 FE E7 FE E7 FE E7 FE E7 FE E7 FE E7 ...  returns 0x00 (0004ms, 1301ms total)
T1924 010:036 JLINK_ReadMem (0x10000044, 0x0004 Bytes, ...) -- CPU is running -- CPU_ReadMem(4 bytes @ 0x10000044) - Data: 00 00 00 00  returns 0x00 (0002ms, 1303ms total)
T1924 010:038 JLINK_ReadMem (0x4000C000, 0x000C Bytes, ...) -- CPU is running -- CPU_ReadMem(12 bytes @ 0x4000C000) - Data: 00 00 00 00 05 00 00 00 C1 00 00 00  returns 0x00 (0001ms, 1304ms total)
T1924 010:039 JLINK_ReadMem (0x4000C00C, 0x0004 Bytes, ...) -- CPU is running -- CPU_ReadMem(4 bytes @ 0x4000C00C) - Data: 03 00 00 00  returns 0x00 (0001ms, 1305ms total)
T1924 010:040 JLINK_ReadMem (0x4000C014, 0x0004 Bytes, ...) -- CPU is running -- CPU_ReadMem(4 bytes @ 0x4000C014) - Data: 60 00 00 00  returns 0x00 (0001ms, 1306ms total)
T1924 010:041 JLINK_ReadMem (0x4000C01C, 0x0004 Bytes, ...) -- CPU is running -- CPU_ReadMem(4 bytes @ 0x4000C01C) - Data: 00 00 00 00  returns 0x00 (0001ms, 1307ms total)
T1924 010:042 JLINK_ReadMem (0x4000C020, 0x0004 Bytes, ...) -- CPU is running -- CPU_ReadMem(4 bytes @ 0x4000C020) - Data: 00 00 00 00  returns 0x00 (0001ms, 1308ms total)
T1924 010:043 JLINK_ReadMem (0x4000C028, 0x0004 Bytes, ...) -- CPU is running -- CPU_ReadMem(4 bytes @ 0x4000C028) - Data: 10 00 00 00  returns 0x00 (0001ms, 1309ms total)
T1924 010:044 JLINK_ReadMem (0x4000C030, 0x0004 Bytes, ...) -- CPU is running -- CPU_ReadMem(4 bytes @ 0x4000C030) - Data: 80 00 00 00  returns 0x00 (0001ms, 1310ms total)
T1924 010:045 JLINK_ReadMem (0x4000C04C, 0x0008 Bytes, ...) -- CPU is running -- CPU_ReadMem(8 bytes @ 0x4000C04C) - Data: 00 00 00 00 00 00 00 00  returns 0x00 (0001ms, 1311ms total)
T1924 010:046 JLINK_ReadMem (0x4000C054, 0x0004 Bytes, ...) -- CPU is running -- CPU_ReadMem(4 bytes @ 0x4000C054) - Data: 00 00 00 00  returns 0x00 (0001ms, 1312ms total)
T1C44 010:048 JLINK_IsHalted()  returns FALSE (0001ms, 1313ms total)
T1C44 010:149 JLINK_IsHalted()  returns FALSE (0001ms, 1313ms total)
T1C44 010:250 JLINK_IsHalted()  returns FALSE (0001ms, 1313ms total)
T1C44 010:351 JLINK_IsHalted()  returns FALSE (0001ms, 1313ms total)
T1C44 010:452 JLINK_IsHalted()  returns FALSE (0002ms, 1314ms total)
T1C44 010:554 JLINK_ReadMemU32(0xE0001004, 0x0001 Items, ...) -- CPU is running -- CPU_ReadMem(4 bytes @ 0xE0001004) - Data: 5C 55 1D 14  returns 0x01 (0002ms, 1314ms total)
T1924 010:557 JLINK_ReadMem (0x0000018A, 0x0195 Bytes, ...) -- CPU is running -- CPU_ReadMem(405 bytes @ 0x0000018A) - Data: FE E7 FE E7 FE E7 FE E7 FE E7 FE E7 FE E7 FE E7 ...  returns 0x00 (0003ms, 1317ms total)
T1924 010:565 JLINK_ReadMem (0x10000044, 0x0004 Bytes, ...) -- CPU is running -- CPU_ReadMem(4 bytes @ 0x10000044) - Data: 00 00 00 00  returns 0x00 (0001ms, 1318ms total)
T1924 010:566 JLINK_ReadMem (0x4000C000, 0x000C Bytes, ...) -- CPU is running -- CPU_ReadMem(12 bytes @ 0x4000C000) - Data: 00 00 00 00 05 00 00 00 C1 00 00 00  returns 0x00 (0001ms, 1319ms total)
T1924 010:567 JLINK_ReadMem (0x4000C00C, 0x0004 Bytes, ...) -- CPU is running -- CPU_ReadMem(4 bytes @ 0x4000C00C) - Data: 03 00 00 00  returns 0x00 (0001ms, 1320ms total)
T1924 010:568 JLINK_ReadMem (0x4000C014, 0x0004 Bytes, ...) -- CPU is running -- CPU_ReadMem(4 bytes @ 0x4000C014) - Data: 60 00 00 00  returns 0x00 (0001ms, 1321ms total)
T1924 010:569 JLINK_ReadMem (0x4000C01C, 0x0004 Bytes, ...) -- CPU is running -- CPU_ReadMem(4 bytes @ 0x4000C01C) - Data: 00 00 00 00  returns 0x00 (0001ms, 1322ms total)
T1924 010:570 JLINK_ReadMem (0x4000C020, 0x0004 Bytes, ...) -- CPU is running -- CPU_ReadMem(4 bytes @ 0x4000C020) - Data: 00 00 00 00  returns 0x00 (0001ms, 1323ms total)
T1924 010:571 JLINK_ReadMem (0x4000C028, 0x0004 Bytes, ...) -- CPU is running -- CPU_ReadMem(4 bytes @ 0x4000C028) - Data: 10 00 00 00  returns 0x00 (0003ms, 1326ms total)
T1924 010:574 JLINK_ReadMem (0x4000C030, 0x0004 Bytes, ...) -- CPU is running -- CPU_ReadMem(4 bytes @ 0x4000C030) - Data: 80 00 00 00  returns 0x00 (0001ms, 1327ms total)
T1924 010:575 JLINK_ReadMem (0x4000C04C, 0x0008 Bytes, ...) -- CPU is running -- CPU_ReadMem(8 bytes @ 0x4000C04C) - Data: 00 00 00 00 00 00 00 00  returns 0x00 (0001ms, 1328ms total)
T1924 010:576 JLINK_ReadMem (0x4000C054, 0x0004 Bytes, ...) -- CPU is running -- CPU_ReadMem(4 bytes @ 0x4000C054) - Data: 00 00 00 00  returns 0x00 (0001ms, 1329ms total)
T1C44 010:577 JLINK_IsHalted()  returns FALSE (0002ms, 1331ms total)
T1C44 010:679 JLINK_IsHalted()  returns FALSE (0003ms, 1332ms total)
T1C44 010:782 JLINK_IsHalted()  returns FALSE (0001ms, 1330ms total)
T1C44 010:885 JLINK_IsHalted()  returns FALSE (0001ms, 1330ms total)
T1C44 010:986 JLINK_IsHalted()  returns FALSE (0001ms, 1330ms total)
T1C44 011:087 JLINK_ReadMemU32(0xE0001004, 0x0001 Items, ...) -- CPU is running -- CPU_ReadMem(4 bytes @ 0xE0001004) - Data: 25 1B EC 17  returns 0x01 (0001ms, 1330ms total)
T1924 011:088 JLINK_ReadMem (0x0000018A, 0x0195 Bytes, ...) -- CPU is running -- CPU_ReadMem(405 bytes @ 0x0000018A) - Data: FE E7 FE E7 FE E7 FE E7 FE E7 FE E7 FE E7 FE E7 ...  returns 0x00 (0003ms, 1333ms total)
T1924 011:096 JLINK_ReadMem (0x10000044, 0x0004 Bytes, ...) -- CPU is running -- CPU_ReadMem(4 bytes @ 0x10000044) - Data: 00 00 00 00  returns 0x00 (0001ms, 1334ms total)
T1924 011:097 JLINK_ReadMem (0x4000C000, 0x000C Bytes, ...) -- CPU is running -- CPU_ReadMem(12 bytes @ 0x4000C000) - Data: 00 00 00 00 05 00 00 00 C1 00 00 00  returns 0x00 (0001ms, 1335ms total)
T1924 011:098 JLINK_ReadMem (0x4000C00C, 0x0004 Bytes, ...) -- CPU is running -- CPU_ReadMem(4 bytes @ 0x4000C00C) - Data: 03 00 00 00  returns 0x00 (0001ms, 1336ms total)
T1924 011:099 JLINK_ReadMem (0x4000C014, 0x0004 Bytes, ...) -- CPU is running -- CPU_ReadMem(4 bytes @ 0x4000C014) - Data: 60 00 00 00  returns 0x00 (0001ms, 1337ms total)
T1924 011:100 JLINK_ReadMem (0x4000C01C, 0x0004 Bytes, ...) -- CPU is running -- CPU_ReadMem(4 bytes @ 0x4000C01C) - Data: 00 00 00 00  returns 0x00 (0001ms, 1338ms total)
T1924 011:101 JLINK_ReadMem (0x4000C020, 0x0004 Bytes, ...) -- CPU is running -- CPU_ReadMem(4 bytes @ 0x4000C020) - Data: 00 00 00 00  returns 0x00 (0001ms, 1339ms total)
T1924 011:102 JLINK_ReadMem (0x4000C028, 0x0004 Bytes, ...) -- CPU is running -- CPU_ReadMem(4 bytes @ 0x4000C028) - Data: 10 00 00 00  returns 0x00 (0001ms, 1340ms total)
T1924 011:103 JLINK_ReadMem (0x4000C030, 0x0004 Bytes, ...) -- CPU is running -- CPU_ReadMem(4 bytes @ 0x4000C030) - Data: 80 00 00 00  returns 0x00 (0001ms, 1341ms total)
T1924 011:104 JLINK_ReadMem (0x4000C04C, 0x0008 Bytes, ...) -- CPU is running -- CPU_ReadMem(8 bytes @ 0x4000C04C) - Data: 00 00 00 00 00 00 00 00  returns 0x00 (0001ms, 1342ms total)
T1924 011:105 JLINK_ReadMem (0x4000C054, 0x0004 Bytes, ...) -- CPU is running -- CPU_ReadMem(4 bytes @ 0x4000C054) - Data: 00 00 00 00  returns 0x00 (0001ms, 1343ms total)
T1C44 011:107 JLINK_IsHalted()  returns FALSE (0001ms, 1344ms total)
T1C44 011:208 JLINK_IsHalted()  returns FALSE (0001ms, 1344ms total)
T1C44 011:309 JLINK_IsHalted()  returns FALSE (0001ms, 1344ms total)
T1C44 011:410 JLINK_IsHalted()  returns FALSE (0001ms, 1344ms total)
T1C44 011:511 JLINK_IsHalted()  returns FALSE (0002ms, 1345ms total)
T1C44 011:613 JLINK_ReadMemU32(0xE0001004, 0x0001 Items, ...) -- CPU is running -- CPU_ReadMem(4 bytes @ 0xE0001004) - Data: 6D CD AE 1B  returns 0x01 (0001ms, 1344ms total)
T1924 011:614 JLINK_ReadMem (0x0000018A, 0x0195 Bytes, ...) -- CPU is running -- CPU_ReadMem(405 bytes @ 0x0000018A) - Data: FE E7 FE E7 FE E7 FE E7 FE E7 FE E7 FE E7 FE E7 ...  returns 0x00 (0003ms, 1347ms total)
T1924 011:619 JLINK_ReadMem (0x10000044, 0x0004 Bytes, ...) -- CPU is running -- CPU_ReadMem(4 bytes @ 0x10000044) - Data: 00 00 00 00  returns 0x00 (0001ms, 1348ms total)
T1924 011:621 JLINK_ReadMem (0x4000C000, 0x000C Bytes, ...) -- CPU is running -- CPU_ReadMem(12 bytes @ 0x4000C000) - Data: 00 00 00 00 05 00 00 00 C1 00 00 00  returns 0x00 (0001ms, 1350ms total)
T1924 011:622 JLINK_ReadMem (0x4000C00C, 0x0004 Bytes, ...) -- CPU is running -- CPU_ReadMem(4 bytes @ 0x4000C00C) - Data: 03 00 00 00  returns 0x00 (0001ms, 1351ms total)
T1924 011:623 JLINK_ReadMem (0x4000C014, 0x0004 Bytes, ...) -- CPU is running -- CPU_ReadMem(4 bytes @ 0x4000C014) - Data: 60 00 00 00  returns 0x00 (0000ms, 1351ms total)
T1924 011:624 JLINK_ReadMem (0x4000C01C, 0x0004 Bytes, ...) -- CPU is running -- CPU_ReadMem(4 bytes @ 0x4000C01C) - Data: 00 00 00 00  returns 0x00 (0000ms, 1352ms total)
T1924 011:625 JLINK_ReadMem (0x4000C020, 0x0004 Bytes, ...) -- CPU is running -- CPU_ReadMem(4 bytes @ 0x4000C020) - Data: 00 00 00 00  returns 0x00 (0000ms, 1352ms total)
T1924 011:626 JLINK_ReadMem (0x4000C028, 0x0004 Bytes, ...) -- CPU is running -- CPU_ReadMem(4 bytes @ 0x4000C028) - Data: 10 00 00 00  returns 0x00 (0000ms, 1352ms total)
T1924 011:627 JLINK_ReadMem (0x4000C030, 0x0004 Bytes, ...) -- CPU is running -- CPU_ReadMem(4 bytes @ 0x4000C030) - Data: 80 00 00 00  returns 0x00 (0000ms, 1352ms total)
T1924 011:628 JLINK_ReadMem (0x4000C04C, 0x0008 Bytes, ...) -- CPU is running -- CPU_ReadMem(8 bytes @ 0x4000C04C) - Data: 00 00 00 00 00 00 00 00  returns 0x00 (0000ms, 1352ms total)
T1924 011:628 JLINK_ReadMem (0x4000C054, 0x0004 Bytes, ...) -- CPU is running -- CPU_ReadMem(4 bytes @ 0x4000C054) - Data: 00 00 00 00  returns 0x00 (0001ms, 1353ms total)
T1C44 011:630 JLINK_IsHalted()  returns FALSE (0001ms, 1354ms total)
T1C44 011:731 JLINK_IsHalted()  returns FALSE (0001ms, 1354ms total)
T1C44 011:832 JLINK_IsHalted()  returns FALSE (0001ms, 1354ms total)
T1C44 011:933 JLINK_IsHalted()  returns FALSE (0001ms, 1354ms total)
T1C44 012:034 JLINK_IsHalted()  returns FALSE (0001ms, 1354ms total)
T1C44 012:135 JLINK_ReadMemU32(0xE0001004, 0x0001 Items, ...) -- CPU is running -- CPU_ReadMem(4 bytes @ 0xE0001004) - Data: EB EC 6A 1F  returns 0x01 (0001ms, 1354ms total)
T1924 012:136 JLINK_ReadMem (0x0000018A, 0x0195 Bytes, ...) -- CPU is running -- CPU_ReadMem(405 bytes @ 0x0000018A) - Data: FE E7 FE E7 FE E7 FE E7 FE E7 FE E7 FE E7 FE E7 ...  returns 0x00 (0003ms, 1357ms total)
T1924 012:143 JLINK_ReadMem (0x10000044, 0x0004 Bytes, ...) -- CPU is running -- CPU_ReadMem(4 bytes @ 0x10000044) - Data: 00 00 00 00  returns 0x00 (0002ms, 1359ms total)
T1924 012:145 JLINK_ReadMem (0x4000C000, 0x000C Bytes, ...) -- CPU is running -- CPU_ReadMem(12 bytes @ 0x4000C000) - Data: 00 00 00 00 05 00 00 00 C1 00 00 00  returns 0x00 (0001ms, 1360ms total)
T1924 012:146 JLINK_ReadMem (0x4000C00C, 0x0004 Bytes, ...) -- CPU is running -- CPU_ReadMem(4 bytes @ 0x4000C00C) - Data: 03 00 00 00  returns 0x00 (0001ms, 1361ms total)
T1924 012:147 JLINK_ReadMem (0x4000C014, 0x0004 Bytes, ...) -- CPU is running -- CPU_ReadMem(4 bytes @ 0x4000C014) - Data: 60 00 00 00  returns 0x00 (0001ms, 1362ms total)
T1924 012:148 JLINK_ReadMem (0x4000C01C, 0x0004 Bytes, ...) -- CPU is running -- CPU_ReadMem(4 bytes @ 0x4000C01C) - Data: 00 00 00 00  returns 0x00 (0001ms, 1363ms total)
T1924 012:149 JLINK_ReadMem (0x4000C020, 0x0004 Bytes, ...) -- CPU is running -- CPU_ReadMem(4 bytes @ 0x4000C020) - Data: 00 00 00 00  returns 0x00 (0001ms, 1364ms total)
T1924 012:150 JLINK_ReadMem (0x4000C028, 0x0004 Bytes, ...) -- CPU is running -- CPU_ReadMem(4 bytes @ 0x4000C028) - Data: 10 00 00 00  returns 0x00 (0001ms, 1365ms total)
T1924 012:151 JLINK_ReadMem (0x4000C030, 0x0004 Bytes, ...) -- CPU is running -- CPU_ReadMem(4 bytes @ 0x4000C030) - Data: 80 00 00 00  returns 0x00 (0001ms, 1366ms total)
T1924 012:152 JLINK_ReadMem (0x4000C04C, 0x0008 Bytes, ...) -- CPU is running -- CPU_ReadMem(8 bytes @ 0x4000C04C) - Data: 00 00 00 00 00 00 00 00  returns 0x00 (0001ms, 1367ms total)
T1924 012:153 JLINK_ReadMem (0x4000C054, 0x0004 Bytes, ...) -- CPU is running -- CPU_ReadMem(4 bytes @ 0x4000C054) - Data: 00 00 00 00  returns 0x00 (0001ms, 1368ms total)
T1C44 012:155 JLINK_IsHalted()  returns FALSE (0001ms, 1369ms total)
T1C44 012:256 JLINK_IsHalted()  returns FALSE (0001ms, 1369ms total)
T1C44 012:357 JLINK_IsHalted()  returns FALSE (0001ms, 1369ms total)
T1C44 012:458 JLINK_IsHalted()  returns FALSE (0001ms, 1369ms total)
T1C44 012:559 JLINK_IsHalted()  returns FALSE (0003ms, 1371ms total)
T1C44 012:662 JLINK_ReadMemU32(0xE0001004, 0x0001 Items, ...) -- CPU is running -- CPU_ReadMem(4 bytes @ 0xE0001004) - Data: AA AE 2F 23  returns 0x01 (0001ms, 1369ms total)
T1924 012:664 JLINK_ReadMem (0x0000018A, 0x0195 Bytes, ...) -- CPU is running -- CPU_ReadMem(405 bytes @ 0x0000018A) - Data: FE E7 FE E7 FE E7 FE E7 FE E7 FE E7 FE E7 FE E7 ...  returns 0x00 (0002ms, 1371ms total)
T1924 012:671 JLINK_ReadMem (0x10000044, 0x0004 Bytes, ...) -- CPU is running -- CPU_ReadMem(4 bytes @ 0x10000044) - Data: 00 00 00 00  returns 0x00 (0001ms, 1372ms total)
T1924 012:672 JLINK_ReadMem (0x4000C000, 0x000C Bytes, ...) -- CPU is running -- CPU_ReadMem(12 bytes @ 0x4000C000) - Data: 00 00 00 00 05 00 00 00 C1 00 00 00  returns 0x00 (0001ms, 1373ms total)
T1924 012:673 JLINK_ReadMem (0x4000C00C, 0x0004 Bytes, ...) -- CPU is running -- CPU_ReadMem(4 bytes @ 0x4000C00C) - Data: 03 00 00 00  returns 0x00 (0001ms, 1374ms total)
T1924 012:674 JLINK_ReadMem (0x4000C014, 0x0004 Bytes, ...) -- CPU is running -- CPU_ReadMem(4 bytes @ 0x4000C014) - Data: 60 00 00 00  returns 0x00 (0001ms, 1375ms total)
T1924 012:675 JLINK_ReadMem (0x4000C01C, 0x0004 Bytes, ...) -- CPU is running -- CPU_ReadMem(4 bytes @ 0x4000C01C) - Data: 00 00 00 00  returns 0x00 (0001ms, 1376ms total)
T1924 012:676 JLINK_ReadMem (0x4000C020, 0x0004 Bytes, ...) -- CPU is running -- CPU_ReadMem(4 bytes @ 0x4000C020) - Data: 00 00 00 00  returns 0x00 (0001ms, 1377ms total)
T1924 012:677 JLINK_ReadMem (0x4000C028, 0x0004 Bytes, ...) -- CPU is running -- CPU_ReadMem(4 bytes @ 0x4000C028) - Data: 10 00 00 00  returns 0x00 (0001ms, 1378ms total)
T1924 012:678 JLINK_ReadMem (0x4000C030, 0x0004 Bytes, ...) -- CPU is running -- CPU_ReadMem(4 bytes @ 0x4000C030) - Data: 80 00 00 00  returns 0x00 (0001ms, 1379ms total)
T1924 012:679 JLINK_ReadMem (0x4000C04C, 0x0008 Bytes, ...) -- CPU is running -- CPU_ReadMem(8 bytes @ 0x4000C04C) - Data: 00 00 00 00 00 00 00 00  returns 0x00 (0001ms, 1380ms total)
T1924 012:680 JLINK_ReadMem (0x4000C054, 0x0004 Bytes, ...) -- CPU is running -- CPU_ReadMem(4 bytes @ 0x4000C054) - Data: 00 00 00 00  returns 0x00 (0001ms, 1381ms total)
T1C44 012:682 JLINK_IsHalted()  returns FALSE (0001ms, 1382ms total)
T1C44 012:784 JLINK_IsHalted()  returns FALSE (0001ms, 1382ms total)
T1C44 012:885 JLINK_IsHalted()  returns FALSE (0001ms, 1382ms total)
T1C44 012:986 JLINK_IsHalted()  returns FALSE (0001ms, 1382ms total)
T1C44 013:087 JLINK_IsHalted()  returns FALSE (0001ms, 1382ms total)
T1C44 013:188 JLINK_ReadMemU32(0xE0001004, 0x0001 Items, ...) -- CPU is running -- CPU_ReadMem(4 bytes @ 0xE0001004) - Data: 2A FB F2 26  returns 0x01 (0001ms, 1382ms total)
T1924 013:189 JLINK_ReadMem (0x0000018A, 0x0195 Bytes, ...) -- CPU is running -- CPU_ReadMem(405 bytes @ 0x0000018A) - Data: FE E7 FE E7 FE E7 FE E7 FE E7 FE E7 FE E7 FE E7 ...  returns 0x00 (0003ms, 1385ms total)
T1924 013:196 JLINK_ReadMem (0x10000044, 0x0004 Bytes, ...) -- CPU is running -- CPU_ReadMem(4 bytes @ 0x10000044) - Data: 00 00 00 00  returns 0x00 (0002ms, 1387ms total)
T1924 013:198 JLINK_ReadMem (0x4000C000, 0x000C Bytes, ...) -- CPU is running -- CPU_ReadMem(12 bytes @ 0x4000C000) - Data: 00 00 00 00 05 00 00 00 C1 00 00 00  returns 0x00 (0001ms, 1388ms total)
T1924 013:199 JLINK_ReadMem (0x4000C00C, 0x0004 Bytes, ...) -- CPU is running -- CPU_ReadMem(4 bytes @ 0x4000C00C) - Data: 03 00 00 00  returns 0x00 (0001ms, 1389ms total)
T1924 013:200 JLINK_ReadMem (0x4000C014, 0x0004 Bytes, ...) -- CPU is running -- CPU_ReadMem(4 bytes @ 0x4000C014) - Data: 60 00 00 00  returns 0x00 (0001ms, 1390ms total)
T1924 013:201 JLINK_ReadMem (0x4000C01C, 0x0004 Bytes, ...) -- CPU is running -- CPU_ReadMem(4 bytes @ 0x4000C01C) - Data: 00 00 00 00  returns 0x00 (0001ms, 1391ms total)
T1924 013:202 JLINK_ReadMem (0x4000C020, 0x0004 Bytes, ...) -- CPU is running -- CPU_ReadMem(4 bytes @ 0x4000C020) - Data: 00 00 00 00  returns 0x00 (0001ms, 1392ms total)
T1924 013:203 JLINK_ReadMem (0x4000C028, 0x0004 Bytes, ...) -- CPU is running -- CPU_ReadMem(4 bytes @ 0x4000C028) - Data: 10 00 00 00  returns 0x00 (0001ms, 1393ms total)
T1924 013:204 JLINK_ReadMem (0x4000C030, 0x0004 Bytes, ...) -- CPU is running -- CPU_ReadMem(4 bytes @ 0x4000C030) - Data: 80 00 00 00  returns 0x00 (0001ms, 1394ms total)
T1924 013:205 JLINK_ReadMem (0x4000C04C, 0x0008 Bytes, ...) -- CPU is running -- CPU_ReadMem(8 bytes @ 0x4000C04C) - Data: 00 00 00 00 00 00 00 00  returns 0x00 (0001ms, 1395ms total)
T1924 013:206 JLINK_ReadMem (0x4000C054, 0x0004 Bytes, ...) -- CPU is running -- CPU_ReadMem(4 bytes @ 0x4000C054) - Data: 00 00 00 00  returns 0x00 (0001ms, 1396ms total)
T1C44 013:208 JLINK_IsHalted()  returns FALSE (0001ms, 1397ms total)
T1C44 013:309 JLINK_IsHalted()  returns FALSE (0001ms, 1397ms total)
T1C44 013:410 JLINK_IsHalted()  returns FALSE (0001ms, 1397ms total)
T1C44 013:511 JLINK_IsHalted()  returns FALSE (0001ms, 1397ms total)
T1C44 013:612 JLINK_IsHalted()  returns FALSE (0005ms, 1401ms total)
T1C44 013:717 JLINK_ReadMemU32(0xE0001004, 0x0001 Items, ...) -- CPU is running -- CPU_ReadMem(4 bytes @ 0xE0001004) - Data: BE 58 BB 2A  returns 0x01 (0001ms, 1397ms total)
T1924 013:718 JLINK_ReadMem (0x0000018A, 0x0195 Bytes, ...) -- CPU is running -- CPU_ReadMem(405 bytes @ 0x0000018A) - Data: FE E7 FE E7 FE E7 FE E7 FE E7 FE E7 FE E7 FE E7 ...  returns 0x00 (0003ms, 1400ms total)
T1924 013:723 JLINK_ReadMem (0x10000044, 0x0004 Bytes, ...) -- CPU is running -- CPU_ReadMem(4 bytes @ 0x10000044) - Data: 00 00 00 00  returns 0x00 (0002ms, 1402ms total)
T1924 013:725 JLINK_ReadMem (0x4000C000, 0x000C Bytes, ...) -- CPU is running -- CPU_ReadMem(12 bytes @ 0x4000C000) - Data: 00 00 00 00 05 00 00 00 C1 00 00 00  returns 0x00 (0001ms, 1403ms total)
T1924 013:726 JLINK_ReadMem (0x4000C00C, 0x0004 Bytes, ...) -- CPU is running -- CPU_ReadMem(4 bytes @ 0x4000C00C) - Data: 03 00 00 00  returns 0x00 (0001ms, 1404ms total)
